T3994 008:152.372   SEGGER J-Link V6.82 Log File
T3994 008:152.414   DLL Compiled: Jul 20 2020 13:38:38
T3994 008:152.417   Logging started @ 2025-03-31 12:08
T3994 008:152.420 - 6168.738ms
T3994 008:152.426 JLINK_SetWarnOutHandler(...)
T3994 008:152.429 - 0.004ms
T3994 008:152.434 JLINK_OpenEx(...)
T3994 008:153.750   Firmware: J-Link V11 compiled Jun 21 2023 09:20:55
T3994 008:153.857   Decompressing FW timestamp took 88 us
T3994 008:157.690   Hardware: V11.00
T3994 008:157.720   S/N: 941000024
T3994 008:157.724   OEM: SEGGER
T3994 008:157.728   Feature(s): RDI, FlashBP, FlashDL, JFlash, GDB
T3994 008:159.118   TELNET listener socket opened on port 19021
T3994 008:161.051   WEBSRV Starting webserver
T3994 008:161.157   WEBSRV Webserver running on local port 19081
T3994 008:161.163 - 8.730ms returns "O.K."
T3994 008:161.175 JLINK_GetEmuCaps()
T3994 008:161.178 - 0.004ms returns 0xB9FF7BBF
T3994 008:161.183 JLINK_TIF_GetAvailable(...)
T3994 008:161.339 - 0.161ms
T3994 008:161.352 JLINK_SetErrorOutHandler(...)
T3994 008:161.356 - 0.004ms
T3994 008:161.602 JLINK_ExecCommand("ProjectFile = "F:\SynologyDrive\01ÄŁÄâĆ÷ÉčĽĆ\01ł¤¸Ë¦ĂĽÁÁżÂĘŇÇ\mn_RS\PORJ\JLinkSettings.ini"", ...). 
T3994 008:162.070 - 0.471ms returns 0x00
T3994 008:162.744 JLINK_ExecCommand("Device = GD32F103RC", ...). 
T3994 008:164.729   Device "GD32F103RC" selected.
T3994 008:164.986 - 2.237ms returns 0x00
T3994 008:165.002 JLINK_GetHardwareVersion()
T3994 008:165.005 - 0.004ms returns 110000
T3994 008:165.009 JLINK_GetDLLVersion()
T3994 008:165.012 - 0.004ms returns 68200
T3994 008:165.016 JLINK_GetOEMString(...)
T3994 008:165.020 JLINK_GetFirmwareString(...)
T3994 008:165.023 - 0.004ms
T3994 008:169.090 JLINK_GetDLLVersion()
T3994 008:169.099 - 0.010ms returns 68200
T3994 008:169.105 JLINK_GetCompileDateTime()
T3994 008:169.108 - 0.004ms
T3994 008:170.153 JLINK_GetFirmwareString(...)
T3994 008:170.161 - 0.009ms
T3994 008:171.006 JLINK_GetHardwareVersion()
T3994 008:171.013 - 0.009ms returns 110000
T3994 008:171.831 JLINK_GetSN()
T3994 008:171.838 - 0.009ms returns 941000024
T3994 008:172.668 JLINK_GetOEMString(...)
T3994 008:174.236 JLINK_TIF_Select(JLINKARM_TIF_SWD)
T3994 008:174.924 - 0.690ms returns 0x00
T3994 008:174.930 JLINK_HasError()
T3994 008:174.936 JLINK_SetSpeed(5000)
T3994 008:175.072 - 0.137ms
T3994 008:175.077 JLINK_GetId()
T3994 008:176.683   Found SW-DP with ID 0x1BA01477
T3994 008:179.643   DPIDR: 0x1BA01477
T3994 008:180.607   Scanning AP map to find all available APs
T3994 008:181.922   AP[1]: Stopped AP scan as end of AP map has been reached
T3994 008:182.714   AP[0]: AHB-AP (IDR: 0x24770011)
T3994 008:183.507   Iterating through AP map to find AHB-AP to use
T3994 008:193.286   AP[0]: Core found
T3994 008:194.289   AP[0]: AHB-AP ROM base: 0xE00FF000
T3994 008:195.528   CPUID register: 0x412FC231. Implementer code: 0x41 (ARM)
T3994 008:196.406   Found Cortex-M3 r2p1, Little endian.
T3994 008:297.477   -- Max. mem block: 0x00003BA8
T3994 008:297.523   CPU_ReadMem(4 bytes @ 0xE000EDF0)
T3994 008:298.244   CPU_WriteMem(4 bytes @ 0xE000EDF0)
T3994 008:298.724   CPU_ReadMem(4 bytes @ 0xE0002000)
T3994 008:301.775   FPUnit: 6 code (BP) slots and 2 literal slots
T3994 008:301.801   CPU_ReadMem(4 bytes @ 0xE000EDFC)
T3994 008:302.149   CPU_WriteMem(4 bytes @ 0xE000EDFC)
T3994 008:302.534   CPU_ReadMem(4 bytes @ 0xE0001000)
T3994 008:302.846   CPU_WriteMem(4 bytes @ 0xE0001000)
T3994 008:303.179   CPU_ReadMem(4 bytes @ 0xE000ED88)
T3994 008:303.491   CPU_WriteMem(4 bytes @ 0xE000ED88)
T3994 008:303.886   CPU_ReadMem(4 bytes @ 0xE000ED88)
T3994 008:304.219   CPU_WriteMem(4 bytes @ 0xE000ED88)
T3994 008:306.517   CoreSight components:
T3994 008:307.875   ROMTbl[0] @ E00FF000
T3994 008:307.891   CPU_ReadMem(64 bytes @ 0xE00FF000)
T3994 008:308.435   CPU_ReadMem(32 bytes @ 0xE000EFE0)
T3994 008:310.190   ROMTbl[0][0]: E000E000, CID: B105E00D, PID: 000BB000 SCS
T3994 008:310.208   CPU_ReadMem(32 bytes @ 0xE0001FE0)
T3994 008:311.760   ROMTbl[0][1]: E0001000, CID: B105E00D, PID: 003BB002 DWT
T3994 008:311.807   CPU_ReadMem(32 bytes @ 0xE0002FE0)
T3994 008:313.322   ROMTbl[0][2]: E0002000, CID: B105E00D, PID: 002BB003 FPB
T3994 008:313.333   CPU_ReadMem(32 bytes @ 0xE0000FE0)
T3994 008:314.628   ROMTbl[0][3]: E0000000, CID: B105E00D, PID: 003BB001 ITM
T3994 008:314.639   CPU_ReadMem(32 bytes @ 0xE0040FE0)
T3994 008:315.888   ROMTbl[0][4]: E0040000, CID: B105900D, PID: 003BB923 TPIU-Lite
T3994 008:315.902   CPU_ReadMem(32 bytes @ 0xE0041FE0)
T3994 008:317.166   ROMTbl[0][5]: E0041000, CID: B105900D, PID: 003BB924 ETM-M3
T3994 008:317.403 - 142.327ms returns 0x1BA01477
T3994 008:317.413 JLINK_GetDLLVersion()
T3994 008:317.416 - 0.004ms returns 68200
T3994 008:317.447 JLINK_CORE_GetFound()
T3994 008:317.450 - 0.004ms returns 0x30000FF
T3994 008:317.455 JLINK_GetDebugInfo(0x100 = JLINKARM_ROM_TABLE_ADDR_INDEX)
T3994 008:317.459   Value=0xE00FF000
T3994 008:317.463 - 0.009ms returns 0
T3994 008:318.256 JLINK_GetDebugInfo(0x100 = JLINKARM_ROM_TABLE_ADDR_INDEX)
T3994 008:318.263   Value=0xE00FF000
T3994 008:318.268 - 0.012ms returns 0
T3994 008:318.271 JLINK_GetDebugInfo(0x101 = JLINKARM_DEBUG_INFO_ETM_ADDR_INDEX)
T3994 008:318.274   Value=0xE0041000
T3994 008:318.278 - 0.008ms returns 0
T3994 008:318.283 JLINK_ReadMemEx(0xE0041FD0, 0x20 Bytes, Flags = 0x02000004)
T3994 008:318.293   CPU_ReadMem(32 bytes @ 0xE0041FD0)
T3994 008:318.696   Data:  04 00 00 00 00 00 00 00 00 00 00 00 00 00 00 00 ...
T3994 008:318.700 - 0.418ms returns 32 (0x20)
T3994 008:318.705 JLINK_GetDebugInfo(0x102 = JLINKARM_DEBUG_INFO_MTB_ADDR_INDEX)
T3994 008:318.708   Value=0x00000000
T3994 008:318.712 - 0.008ms returns 0
T3994 008:318.715 JLINK_GetDebugInfo(0x103 = JLINKARM_DEBUG_INFO_TPIU_ADDR_INDEX)
T3994 008:318.718   Value=0xE0040000
T3994 008:318.722 - 0.008ms returns 0
T3994 008:318.725 JLINK_GetDebugInfo(0x104 = JLINKARM_DEBUG_INFO_ITM_ADDR_INDEX)
T3994 008:318.728   Value=0xE0000000
T3994 008:318.732 - 0.008ms returns 0
T3994 008:318.735 JLINK_GetDebugInfo(0x105 = JLINKARM_DEBUG_INFO_DWT_ADDR_INDEX)
T3994 008:318.742   Value=0xE0001000
T3994 008:318.748 - 0.013ms returns 0
T3994 008:318.751 JLINK_GetDebugInfo(0x106 = JLINKARM_DEBUG_INFO_FPB_ADDR_INDEX)
T3994 008:318.754   Value=0xE0002000
T3994 008:318.758 - 0.008ms returns 0
T3994 008:318.761 JLINK_GetDebugInfo(0x107 = JLINKARM_DEBUG_INFO_NVIC_ADDR_INDEX)
T3994 008:318.764   Value=0xE000E000
T3994 008:318.768 - 0.008ms returns 0
T3994 008:318.771 JLINK_GetDebugInfo(0x10C = JLINKARM_DEBUG_INFO_DBG_ADDR_INDEX)
T3994 008:318.774   Value=0xE000EDF0
T3994 008:318.778 - 0.008ms returns 0
T3994 008:318.781 JLINK_GetDebugInfo(0x01 = Unknown)
T3994 008:318.787   Value=0x00000000
T3994 008:318.791 - 0.011ms returns 0
T3994 008:318.795 JLINK_ReadMemU32(0xE000ED00, 0x1 Items)
T3994 008:318.801   CPU_ReadMem(4 bytes @ 0xE000ED00)
T3994 008:319.093   Data:  31 C2 2F 41
T3994 008:319.098   Debug reg: CPUID
T3994 008:319.102 - 0.308ms returns 1 (0x1)
T3994 008:319.106 JLINK_GetDebugInfo(0x10F = JLINKARM_DEBUG_INFO_HAS_CORTEX_M_SECURITY_EXT_INDEX)
T3994 008:319.109   Value=0x00000000
T3994 008:319.113 - 0.008ms returns 0
T3994 008:319.117 JLINK_HasError()
T3994 008:319.121 JLINK_SetResetType(JLINKARM_CM3_RESET_TYPE_NORMAL)
T3994 008:319.124 - 0.004ms returns JLINKARM_CM3_RESET_TYPE_NORMAL
T3994 008:319.128 JLINK_Reset()
T3994 008:319.134   CPU is running
T3994 008:319.139   CPU_WriteMem(4 bytes @ 0xE000EDF0)
T3994 008:319.485   CPU is running
T3994 008:319.490   CPU_WriteMem(4 bytes @ 0xE000EDFC)
T3994 008:321.350   Reset: Halt core after reset via DEMCR.VC_CORERESET.
T3994 008:322.819   Reset: Reset device via AIRCR.SYSRESETREQ.
T3994 008:322.830   CPU is running
T3994 008:322.835   CPU_WriteMem(4 bytes @ 0xE000ED0C)
T3994 008:375.031   CPU_ReadMem(4 bytes @ 0xE000EDF0)
T3994 008:375.340   CPU_ReadMem(4 bytes @ 0xE000EDF0)
T3994 008:375.674   CPU is running
T3994 008:375.679   CPU_WriteMem(4 bytes @ 0xE000EDF0)
T3994 008:376.007   CPU is running
T3994 008:376.012   CPU_WriteMem(4 bytes @ 0xE000EDFC)
T3994 008:381.702   CPU_ReadMem(4 bytes @ 0xE000EDF0)
T3994 008:384.592   CPU_WriteMem(4 bytes @ 0xE0002000)
T3994 008:384.986   CPU_ReadMem(4 bytes @ 0xE000EDFC)
T3994 008:385.319   CPU_ReadMem(4 bytes @ 0xE0001000)
T3994 008:385.637 - 66.516ms
T3994 008:385.664 JLINK_Halt()
T3994 008:385.667 - 0.005ms returns 0x00
T3994 008:385.715 JLINK_ReadMemU32(0xE000EDF0, 0x1 Items)
T3994 008:385.725   CPU_ReadMem(4 bytes @ 0xE000EDF0)
T3994 008:386.007   Data:  03 00 03 00
T3994 008:386.012   Debug reg: DHCSR
T3994 008:386.016 - 0.302ms returns 1 (0x1)
T3994 008:386.024 JLINK_WriteU32_64(0xE000EDF0, 0xA05F0003)
T3994 008:386.029   Debug reg: DHCSR
T3994 008:386.040   CPU_WriteMem(4 bytes @ 0xE000EDF0)
T3994 008:386.402 - 0.380ms returns 0 (0x00000000)
T3994 008:386.407 JLINK_WriteU32_64(0xE000EDFC, 0x01000000)
T3994 008:386.410   Debug reg: DEMCR
T3994 008:386.416   CPU_WriteMem(4 bytes @ 0xE000EDFC)
T3994 008:386.735 - 0.330ms returns 0 (0x00000000)
T3994 008:390.072 JLINK_GetHWStatus(...)
T3994 008:390.220 - 0.150ms returns 0
T3994 008:392.704 JLINK_GetNumBPUnits(Type = 0xFFFFFF00)
T3994 008:392.712 - 0.010ms returns 0x06
T3994 008:392.716 JLINK_GetNumBPUnits(Type = 0xF0)
T3994 008:392.719 - 0.004ms returns 0x2000
T3994 008:392.723 JLINK_GetNumWPUnits()
T3994 008:392.726 - 0.004ms returns 4
T3994 008:395.044 JLINK_GetSpeed()
T3994 008:395.052 - 0.009ms returns 5000
T3994 008:396.821 JLINK_ReadMemU32(0xE000E004, 0x1 Items)
T3994 008:396.835   CPU_ReadMem(4 bytes @ 0xE000E004)
T3994 008:397.138   Data:  02 00 00 00
T3994 008:397.143 - 0.323ms returns 1 (0x1)
T3994 008:397.148 JLINK_ReadMemU32(0xE000E004, 0x1 Items)
T3994 008:397.153   CPU_ReadMem(4 bytes @ 0xE000E004)
T3994 008:397.470   Data:  02 00 00 00
T3994 008:397.475 - 0.328ms returns 1 (0x1)
T3994 008:397.481 JLINK_WriteMemEx(0xE0001000, 0x0000001C Bytes, Flags = 0x02000004)
T3994 008:397.484   Data:  01 00 00 00 00 00 00 00 00 00 00 00 00 00 00 00 ...
T3994 008:397.662   CPU_WriteMem(28 bytes @ 0xE0001000)
T3994 008:398.073 - 0.593ms returns 0x1C
T3994 008:398.081 JLINK_Halt()
T3994 008:398.084 - 0.004ms returns 0x00
T3994 008:398.089 JLINK_IsHalted()
T3994 008:398.092 - 0.004ms returns TRUE
T3994 008:413.873 JLINK_WriteMem(0x20000000, 0x13C Bytes, ...)
T3994 008:413.880   Data:  00 BE 0A E0 0D 78 2D 06 68 40 08 24 40 00 00 D3 ...
T3994 008:414.049   CPU_WriteMem(316 bytes @ 0x20000000)
T3994 008:415.382 - 1.513ms returns 0x13C
T3994 008:415.406 JLINK_HasError()
T3994 008:415.412 JLINK_WriteReg(R0, 0x08000000)
T3994 008:415.417 - 0.006ms returns 0
T3994 008:415.421 JLINK_WriteReg(R1, 0x00B71B00)
T3994 008:415.424 - 0.006ms returns 0
T3994 008:415.430 JLINK_WriteReg(R2, 0x00000001)
T3994 008:415.433 - 0.004ms returns 0
T3994 008:415.436 JLINK_WriteReg(R3, 0x00000000)
T3994 008:415.439 - 0.004ms returns 0
T3994 008:415.443 JLINK_WriteReg(R4, 0x00000000)
T3994 008:415.446 - 0.004ms returns 0
T3994 008:415.449 JLINK_WriteReg(R5, 0x00000000)
T3994 008:415.452 - 0.004ms returns 0
T3994 008:415.455 JLINK_WriteReg(R6, 0x00000000)
T3994 008:415.458 - 0.004ms returns 0
T3994 008:415.462 JLINK_WriteReg(R7, 0x00000000)
T3994 008:415.465 - 0.004ms returns 0
T3994 008:415.468 JLINK_WriteReg(R8, 0x00000000)
T3994 008:415.471 - 0.004ms returns 0
T3994 008:415.475 JLINK_WriteReg(R9, 0x20000134)
T3994 008:415.478 - 0.004ms returns 0
T3994 008:415.481 JLINK_WriteReg(R10, 0x00000000)
T3994 008:415.484 - 0.004ms returns 0
T3994 008:415.488 JLINK_WriteReg(R11, 0x00000000)
T3994 008:415.491 - 0.004ms returns 0
T3994 008:415.494 JLINK_WriteReg(R12, 0x00000000)
T3994 008:415.497 - 0.004ms returns 0
T3994 008:415.500 JLINK_WriteReg(R13 (SP), 0x20001000)
T3994 008:415.504 - 0.009ms returns 0
T3994 008:415.512 JLINK_WriteReg(R14, 0x20000001)
T3994 008:415.516 - 0.004ms returns 0
T3994 008:415.519 JLINK_WriteReg(R15 (PC), 0x20000038)
T3994 008:415.524 - 0.006ms returns 0
T3994 008:415.527 JLINK_WriteReg(XPSR, 0x01000000)
T3994 008:415.530 - 0.004ms returns 0
T3994 008:415.534 JLINK_WriteReg(MSP, 0x20001000)
T3994 008:415.537 - 0.005ms returns 0
T3994 008:415.542 JLINK_WriteReg(PSP, 0x20001000)
T3994 008:415.545 - 0.004ms returns 0
T3994 008:415.548 JLINK_WriteReg(CFBP, 0x00000000)
T3994 008:415.552 - 0.004ms returns 0
T3994 008:415.556 JLINK_SetBPEx(Addr = 0x20000000, Type = 0xFFFFFFF2)
T3994 008:415.561   CPU_ReadMem(2 bytes @ 0x20000000)
T3994 008:415.866 - 0.312ms returns 0x00000001
T3994 008:415.871 JLINK_Go()
T3994 008:415.875   CPU_WriteMem(2 bytes @ 0x20000000)
T3994 008:416.245   CPU_ReadMem(4 bytes @ 0xE0001000)
T3994 008:416.594   CPU_WriteMem(4 bytes @ 0xE0002008)
T3994 008:416.599   CPU_WriteMem(4 bytes @ 0xE000200C)
T3994 008:416.604   CPU_WriteMem(4 bytes @ 0xE0002010)
T3994 008:416.608   CPU_WriteMem(4 bytes @ 0xE0002014)
T3994 008:416.612   CPU_WriteMem(4 bytes @ 0xE0002018)
T3994 008:416.616   CPU_WriteMem(4 bytes @ 0xE000201C)
T3994 008:417.950   CPU_WriteMem(4 bytes @ 0xE0001004)
T3994 008:420.698 - 4.829ms
T3994 008:420.703 JLINK_IsHalted()
T3994 008:423.036   CPU_ReadMem(2 bytes @ 0x20000000)
T3994 008:423.364 - 2.662ms returns TRUE
T3994 008:423.370 JLINK_ReadReg(R15 (PC))
T3994 008:423.373 - 0.005ms returns 0x20000000
T3994 008:423.377 JLINK_ClrBPEx(BPHandle = 0x00000001)
T3994 008:423.380 - 0.004ms returns 0x00
T3994 008:423.384 JLINK_ReadReg(R0)
T3994 008:423.387 - 0.004ms returns 0x00000000
T3994 008:423.700 JLINK_HasError()
T3994 008:423.707 JLINK_WriteReg(R0, 0x08000000)
T3994 008:423.711 - 0.005ms returns 0
T3994 008:423.715 JLINK_WriteReg(R1, 0x00000800)
T3994 008:423.718 - 0.004ms returns 0
T3994 008:423.721 JLINK_WriteReg(R2, 0x000000FF)
T3994 008:423.724 - 0.004ms returns 0
T3994 008:423.728 JLINK_WriteReg(R3, 0x00000000)
T3994 008:423.731 - 0.004ms returns 0
T3994 008:423.734 JLINK_WriteReg(R4, 0x00000000)
T3994 008:423.737 - 0.004ms returns 0
T3994 008:423.740 JLINK_WriteReg(R5, 0x00000000)
T3994 008:423.743 - 0.004ms returns 0
T3994 008:423.746 JLINK_WriteReg(R6, 0x00000000)
T3994 008:423.749 - 0.004ms returns 0
T3994 008:423.753 JLINK_WriteReg(R7, 0x00000000)
T3994 008:423.756 - 0.004ms returns 0
T3994 008:423.759 JLINK_WriteReg(R8, 0x00000000)
T3994 008:423.762 - 0.004ms returns 0
T3994 008:423.765 JLINK_WriteReg(R9, 0x20000134)
T3994 008:423.768 - 0.005ms returns 0
T3994 008:423.773 JLINK_WriteReg(R10, 0x00000000)
T3994 008:423.777 - 0.005ms returns 0
T3994 008:423.781 JLINK_WriteReg(R11, 0x00000000)
T3994 008:423.785 - 0.005ms returns 0
T3994 008:423.789 JLINK_WriteReg(R12, 0x00000000)
T3994 008:423.792 - 0.004ms returns 0
T3994 008:423.795 JLINK_WriteReg(R13 (SP), 0x20001000)
T3994 008:423.798 - 0.004ms returns 0
T3994 008:423.801 JLINK_WriteReg(R14, 0x20000001)
T3994 008:423.805 - 0.004ms returns 0
T3994 008:423.808 JLINK_WriteReg(R15 (PC), 0x20000020)
T3994 008:423.811 - 0.004ms returns 0
T3994 008:423.814 JLINK_WriteReg(XPSR, 0x01000000)
T3994 008:423.818 - 0.004ms returns 0
T3994 008:423.821 JLINK_WriteReg(MSP, 0x20001000)
T3994 008:423.824 - 0.004ms returns 0
T3994 008:423.827 JLINK_WriteReg(PSP, 0x20001000)
T3994 008:423.830 - 0.004ms returns 0
T3994 008:423.833 JLINK_WriteReg(CFBP, 0x00000000)
T3994 008:423.836 - 0.004ms returns 0
T3994 008:423.840 JLINK_SetBPEx(Addr = 0x20000000, Type = 0xFFFFFFF2)
T3994 008:423.844 - 0.005ms returns 0x00000002
T3994 008:423.847 JLINK_Go()
T3994 008:423.854   CPU_ReadMem(4 bytes @ 0xE0001000)
T3994 008:426.595 - 2.750ms
T3994 008:426.600 JLINK_IsHalted()
T3994 008:426.863 - 0.265ms returns FALSE
T3994 008:426.868 JLINK_HasError()
T3994 008:432.890 JLINK_IsHalted()
T3994 008:435.313   CPU_ReadMem(2 bytes @ 0x20000000)
T3994 008:435.615 - 2.726ms returns TRUE
T3994 008:435.620 JLINK_ReadReg(R15 (PC))
T3994 008:435.624 - 0.006ms returns 0x20000000
T3994 008:435.628 JLINK_ClrBPEx(BPHandle = 0x00000002)
T3994 008:435.632 - 0.004ms returns 0x00
T3994 008:435.635 JLINK_ReadReg(R0)
T3994 008:435.638 - 0.004ms returns 0x00000000
T3994 008:435.867 JLINK_HasError()
T3994 008:435.872 JLINK_WriteReg(R0, 0x08000800)
T3994 008:435.876 - 0.005ms returns 0
T3994 008:435.880 JLINK_WriteReg(R1, 0x00000800)
T3994 008:435.911 - 0.033ms returns 0
T3994 008:435.916 JLINK_WriteReg(R2, 0x000000FF)
T3994 008:435.919 - 0.004ms returns 0
T3994 008:435.923 JLINK_WriteReg(R3, 0x00000000)
T3994 008:435.927 - 0.006ms returns 0
T3994 008:435.931 JLINK_WriteReg(R4, 0x00000000)
T3994 008:435.935 - 0.006ms returns 0
T3994 008:435.940 JLINK_WriteReg(R5, 0x00000000)
T3994 008:435.943 - 0.004ms returns 0
T3994 008:435.966 JLINK_WriteReg(R6, 0x00000000)
T3994 008:435.970 - 0.005ms returns 0
T3994 008:435.973 JLINK_WriteReg(R7, 0x00000000)
T3994 008:435.976 - 0.004ms returns 0
T3994 008:435.979 JLINK_WriteReg(R8, 0x00000000)
T3994 008:435.982 - 0.004ms returns 0
T3994 008:435.986 JLINK_WriteReg(R9, 0x20000134)
T3994 008:435.989 - 0.004ms returns 0
T3994 008:435.992 JLINK_WriteReg(R10, 0x00000000)
T3994 008:435.995 - 0.004ms returns 0
T3994 008:435.998 JLINK_WriteReg(R11, 0x00000000)
T3994 008:436.001 - 0.004ms returns 0
T3994 008:436.005 JLINK_WriteReg(R12, 0x00000000)
T3994 008:436.008 - 0.004ms returns 0
T3994 008:436.011 JLINK_WriteReg(R13 (SP), 0x20001000)
T3994 008:436.015 - 0.005ms returns 0
T3994 008:436.018 JLINK_WriteReg(R14, 0x20000001)
T3994 008:436.021 - 0.004ms returns 0
T3994 008:436.024 JLINK_WriteReg(R15 (PC), 0x20000020)
T3994 008:436.027 - 0.004ms returns 0
T3994 008:436.031 JLINK_WriteReg(XPSR, 0x01000000)
T3994 008:436.034 - 0.004ms returns 0
T3994 008:436.037 JLINK_WriteReg(MSP, 0x20001000)
T3994 008:436.040 - 0.004ms returns 0
T3994 008:436.043 JLINK_WriteReg(PSP, 0x20001000)
T3994 008:436.046 - 0.004ms returns 0
T3994 008:436.050 JLINK_WriteReg(CFBP, 0x00000000)
T3994 008:436.053 - 0.004ms returns 0
T3994 008:436.056 JLINK_SetBPEx(Addr = 0x20000000, Type = 0xFFFFFFF2)
T3994 008:436.060 - 0.005ms returns 0x00000003
T3994 008:436.063 JLINK_Go()
T3994 008:436.070   CPU_ReadMem(4 bytes @ 0xE0001000)
T3994 008:438.824 - 2.762ms
T3994 008:438.828 JLINK_IsHalted()
T3994 008:439.093 - 0.266ms returns FALSE
T3994 008:439.097 JLINK_HasError()
T3994 008:441.526 JLINK_IsHalted()
T3994 008:441.907 - 0.383ms returns FALSE
T3994 008:441.912 JLINK_HasError()
T3994 008:443.572 JLINK_IsHalted()
T3994 008:443.864 - 0.299ms returns FALSE
T3994 008:443.875 JLINK_HasError()
T3994 008:445.618 JLINK_IsHalted()
T3994 008:448.015   CPU_ReadMem(2 bytes @ 0x20000000)
T3994 008:448.302 - 2.685ms returns TRUE
T3994 008:448.311 JLINK_ReadReg(R15 (PC))
T3994 008:448.315 - 0.006ms returns 0x20000000
T3994 008:448.319 JLINK_ClrBPEx(BPHandle = 0x00000003)
T3994 008:448.323 - 0.004ms returns 0x00
T3994 008:448.326 JLINK_ReadReg(R0)
T3994 008:448.329 - 0.004ms returns 0x00000000
T3994 008:448.558 JLINK_HasError()
T3994 008:448.564 JLINK_WriteReg(R0, 0x08001000)
T3994 008:448.568 - 0.005ms returns 0
T3994 008:448.572 JLINK_WriteReg(R1, 0x00000800)
T3994 008:448.575 - 0.004ms returns 0
T3994 008:448.578 JLINK_WriteReg(R2, 0x000000FF)
T3994 008:448.581 - 0.004ms returns 0
T3994 008:448.585 JLINK_WriteReg(R3, 0x00000000)
T3994 008:448.588 - 0.004ms returns 0
T3994 008:448.591 JLINK_WriteReg(R4, 0x00000000)
T3994 008:448.594 - 0.004ms returns 0
T3994 008:448.597 JLINK_WriteReg(R5, 0x00000000)
T3994 008:448.600 - 0.004ms returns 0
T3994 008:448.603 JLINK_WriteReg(R6, 0x00000000)
T3994 008:448.606 - 0.004ms returns 0
T3994 008:448.610 JLINK_WriteReg(R7, 0x00000000)
T3994 008:448.613 - 0.004ms returns 0
T3994 008:448.616 JLINK_WriteReg(R8, 0x00000000)
T3994 008:448.619 - 0.004ms returns 0
T3994 008:448.622 JLINK_WriteReg(R9, 0x20000134)
T3994 008:448.625 - 0.004ms returns 0
T3994 008:448.628 JLINK_WriteReg(R10, 0x00000000)
T3994 008:448.631 - 0.004ms returns 0
T3994 008:448.635 JLINK_WriteReg(R11, 0x00000000)
T3994 008:448.638 - 0.004ms returns 0
T3994 008:448.641 JLINK_WriteReg(R12, 0x00000000)
T3994 008:448.644 - 0.004ms returns 0
T3994 008:448.647 JLINK_WriteReg(R13 (SP), 0x20001000)
T3994 008:448.650 - 0.004ms returns 0
T3994 008:448.654 JLINK_WriteReg(R14, 0x20000001)
T3994 008:448.657 - 0.005ms returns 0
T3994 008:448.661 JLINK_WriteReg(R15 (PC), 0x20000020)
T3994 008:448.685 - 0.026ms returns 0
T3994 008:448.690 JLINK_WriteReg(XPSR, 0x01000000)
T3994 008:448.693 - 0.004ms returns 0
T3994 008:448.696 JLINK_WriteReg(MSP, 0x20001000)
T3994 008:448.699 - 0.004ms returns 0
T3994 008:448.703 JLINK_WriteReg(PSP, 0x20001000)
T3994 008:448.706 - 0.004ms returns 0
T3994 008:448.709 JLINK_WriteReg(CFBP, 0x00000000)
T3994 008:448.712 - 0.004ms returns 0
T3994 008:448.715 JLINK_SetBPEx(Addr = 0x20000000, Type = 0xFFFFFFF2)
T3994 008:448.719 - 0.005ms returns 0x00000004
T3994 008:448.722 JLINK_Go()
T3994 008:448.729   CPU_ReadMem(4 bytes @ 0xE0001000)
T3994 008:451.448 - 2.729ms
T3994 008:451.455 JLINK_IsHalted()
T3994 008:451.740 - 0.287ms returns FALSE
T3994 008:451.745 JLINK_HasError()
T3994 008:453.764 JLINK_IsHalted()
T3994 008:454.093 - 0.331ms returns FALSE
T3994 008:454.098 JLINK_HasError()
T3994 008:455.794 JLINK_IsHalted()
T3994 008:456.155 - 0.364ms returns FALSE
T3994 008:456.161 JLINK_HasError()
T3994 008:457.793 JLINK_IsHalted()
T3994 008:460.092   CPU_ReadMem(2 bytes @ 0x20000000)
T3994 008:460.412 - 2.621ms returns TRUE
T3994 008:460.419 JLINK_ReadReg(R15 (PC))
T3994 008:460.425 - 0.008ms returns 0x20000000
T3994 008:460.431 JLINK_ClrBPEx(BPHandle = 0x00000004)
T3994 008:460.436 - 0.007ms returns 0x00
T3994 008:460.441 JLINK_ReadReg(R0)
T3994 008:460.446 - 0.006ms returns 0x00000000
T3994 008:460.771 JLINK_HasError()
T3994 008:460.779 JLINK_WriteReg(R0, 0x08001800)
T3994 008:460.785 - 0.008ms returns 0
T3994 008:460.790 JLINK_WriteReg(R1, 0x00000800)
T3994 008:460.795 - 0.006ms returns 0
T3994 008:460.800 JLINK_WriteReg(R2, 0x000000FF)
T3994 008:460.804 - 0.006ms returns 0
T3994 008:460.809 JLINK_WriteReg(R3, 0x00000000)
T3994 008:460.814 - 0.006ms returns 0
T3994 008:460.819 JLINK_WriteReg(R4, 0x00000000)
T3994 008:460.823 - 0.006ms returns 0
T3994 008:460.828 JLINK_WriteReg(R5, 0x00000000)
T3994 008:460.833 - 0.007ms returns 0
T3994 008:460.840 JLINK_WriteReg(R6, 0x00000000)
T3994 008:460.846 - 0.009ms returns 0
T3994 008:460.852 JLINK_WriteReg(R7, 0x00000000)
T3994 008:460.857 - 0.006ms returns 0
T3994 008:460.862 JLINK_WriteReg(R8, 0x00000000)
T3994 008:460.867 - 0.006ms returns 0
T3994 008:460.871 JLINK_WriteReg(R9, 0x20000134)
T3994 008:460.876 - 0.006ms returns 0
T3994 008:460.881 JLINK_WriteReg(R10, 0x00000000)
T3994 008:460.885 - 0.006ms returns 0
T3994 008:460.891 JLINK_WriteReg(R11, 0x00000000)
T3994 008:460.895 - 0.006ms returns 0
T3994 008:460.900 JLINK_WriteReg(R12, 0x00000000)
T3994 008:460.904 - 0.006ms returns 0
T3994 008:460.909 JLINK_WriteReg(R13 (SP), 0x20001000)
T3994 008:460.914 - 0.007ms returns 0
T3994 008:460.919 JLINK_WriteReg(R14, 0x20000001)
T3994 008:460.924 - 0.006ms returns 0
T3994 008:460.933 JLINK_WriteReg(R15 (PC), 0x20000020)
T3994 008:460.939 - 0.007ms returns 0
T3994 008:460.944 JLINK_WriteReg(XPSR, 0x01000000)
T3994 008:460.948 - 0.006ms returns 0
T3994 008:460.953 JLINK_WriteReg(MSP, 0x20001000)
T3994 008:460.958 - 0.006ms returns 0
T3994 008:460.963 JLINK_WriteReg(PSP, 0x20001000)
T3994 008:460.967 - 0.006ms returns 0
T3994 008:460.972 JLINK_WriteReg(CFBP, 0x00000000)
T3994 008:460.977 - 0.006ms returns 0
T3994 008:460.982 JLINK_SetBPEx(Addr = 0x20000000, Type = 0xFFFFFFF2)
T3994 008:460.987 - 0.007ms returns 0x00000005
T3994 008:460.992 JLINK_Go()
T3994 008:461.002   CPU_ReadMem(4 bytes @ 0xE0001000)
T3994 008:463.745 - 2.759ms
T3994 008:463.759 JLINK_IsHalted()
T3994 008:464.121 - 0.364ms returns FALSE
T3994 008:464.131 JLINK_HasError()
T3994 008:466.901 JLINK_IsHalted()
T3994 008:467.329 - 0.431ms returns FALSE
T3994 008:467.336 JLINK_HasError()
T3994 008:469.420 JLINK_IsHalted()
T3994 008:471.798   CPU_ReadMem(2 bytes @ 0x20000000)
T3994 008:472.100 - 2.682ms returns TRUE
T3994 008:472.107 JLINK_ReadReg(R15 (PC))
T3994 008:472.113 - 0.008ms returns 0x20000000
T3994 008:472.119 JLINK_ClrBPEx(BPHandle = 0x00000005)
T3994 008:472.124 - 0.007ms returns 0x00
T3994 008:472.129 JLINK_ReadReg(R0)
T3994 008:472.134 - 0.006ms returns 0x00000000
T3994 008:472.526 JLINK_HasError()
T3994 008:472.537 JLINK_WriteReg(R0, 0x08002000)
T3994 008:472.543 - 0.009ms returns 0
T3994 008:472.549 JLINK_WriteReg(R1, 0x00000800)
T3994 008:472.554 - 0.007ms returns 0
T3994 008:472.560 JLINK_WriteReg(R2, 0x000000FF)
T3994 008:472.565 - 0.007ms returns 0
T3994 008:472.571 JLINK_WriteReg(R3, 0x00000000)
T3994 008:472.576 - 0.007ms returns 0
T3994 008:472.581 JLINK_WriteReg(R4, 0x00000000)
T3994 008:472.586 - 0.007ms returns 0
T3994 008:472.592 JLINK_WriteReg(R5, 0x00000000)
T3994 008:472.597 - 0.007ms returns 0
T3994 008:472.603 JLINK_WriteReg(R6, 0x00000000)
T3994 008:472.608 - 0.007ms returns 0
T3994 008:472.613 JLINK_WriteReg(R7, 0x00000000)
T3994 008:472.618 - 0.007ms returns 0
T3994 008:472.624 JLINK_WriteReg(R8, 0x00000000)
T3994 008:472.629 - 0.007ms returns 0
T3994 008:472.634 JLINK_WriteReg(R9, 0x20000134)
T3994 008:472.639 - 0.007ms returns 0
T3994 008:472.645 JLINK_WriteReg(R10, 0x00000000)
T3994 008:472.650 - 0.007ms returns 0
T3994 008:472.656 JLINK_WriteReg(R11, 0x00000000)
T3994 008:472.661 - 0.007ms returns 0
T3994 008:472.666 JLINK_WriteReg(R12, 0x00000000)
T3994 008:472.671 - 0.007ms returns 0
T3994 008:472.677 JLINK_WriteReg(R13 (SP), 0x20001000)
T3994 008:472.682 - 0.007ms returns 0
T3994 008:472.688 JLINK_WriteReg(R14, 0x20000001)
T3994 008:472.693 - 0.007ms returns 0
T3994 008:472.699 JLINK_WriteReg(R15 (PC), 0x20000020)
T3994 008:472.704 - 0.007ms returns 0
T3994 008:472.710 JLINK_WriteReg(XPSR, 0x01000000)
T3994 008:472.715 - 0.007ms returns 0
T3994 008:472.720 JLINK_WriteReg(MSP, 0x20001000)
T3994 008:472.725 - 0.007ms returns 0
T3994 008:472.731 JLINK_WriteReg(PSP, 0x20001000)
T3994 008:472.736 - 0.007ms returns 0
T3994 008:472.742 JLINK_WriteReg(CFBP, 0x00000000)
T3994 008:472.747 - 0.007ms returns 0
T3994 008:472.752 JLINK_SetBPEx(Addr = 0x20000000, Type = 0xFFFFFFF2)
T3994 008:472.758 - 0.008ms returns 0x00000006
T3994 008:472.764 JLINK_Go()
T3994 008:472.775   CPU_ReadMem(4 bytes @ 0xE0001000)
T3994 008:475.495 - 2.735ms
T3994 008:475.505 JLINK_IsHalted()
T3994 008:475.826 - 0.324ms returns FALSE
T3994 008:475.833 JLINK_HasError()
T3994 008:478.103 JLINK_IsHalted()
T3994 008:478.493 - 0.393ms returns FALSE
T3994 008:478.500 JLINK_HasError()
T3994 008:479.637 JLINK_IsHalted()
T3994 008:479.954 - 0.322ms returns FALSE
T3994 008:479.964 JLINK_HasError()
T3994 008:481.641 JLINK_IsHalted()
T3994 008:484.093   CPU_ReadMem(2 bytes @ 0x20000000)
T3994 008:484.414 - 2.776ms returns TRUE
T3994 008:484.422 JLINK_ReadReg(R15 (PC))
T3994 008:484.428 - 0.009ms returns 0x20000000
T3994 008:484.434 JLINK_ClrBPEx(BPHandle = 0x00000006)
T3994 008:484.440 - 0.007ms returns 0x00
T3994 008:484.446 JLINK_ReadReg(R0)
T3994 008:484.451 - 0.007ms returns 0x00000000
T3994 008:484.843 JLINK_HasError()
T3994 008:484.852 JLINK_WriteReg(R0, 0x08002800)
T3994 008:484.859 - 0.010ms returns 0
T3994 008:484.866 JLINK_WriteReg(R1, 0x00000800)
T3994 008:484.871 - 0.008ms returns 0
T3994 008:484.877 JLINK_WriteReg(R2, 0x000000FF)
T3994 008:484.882 - 0.007ms returns 0
T3994 008:484.888 JLINK_WriteReg(R3, 0x00000000)
T3994 008:484.893 - 0.007ms returns 0
T3994 008:484.899 JLINK_WriteReg(R4, 0x00000000)
T3994 008:484.904 - 0.007ms returns 0
T3994 008:484.910 JLINK_WriteReg(R5, 0x00000000)
T3994 008:484.915 - 0.007ms returns 0
T3994 008:484.921 JLINK_WriteReg(R6, 0x00000000)
T3994 008:484.926 - 0.007ms returns 0
T3994 008:484.932 JLINK_WriteReg(R7, 0x00000000)
T3994 008:484.937 - 0.007ms returns 0
T3994 008:484.943 JLINK_WriteReg(R8, 0x00000000)
T3994 008:484.948 - 0.007ms returns 0
T3994 008:484.954 JLINK_WriteReg(R9, 0x20000134)
T3994 008:484.959 - 0.007ms returns 0
T3994 008:484.965 JLINK_WriteReg(R10, 0x00000000)
T3994 008:484.970 - 0.007ms returns 0
T3994 008:484.976 JLINK_WriteReg(R11, 0x00000000)
T3994 008:484.981 - 0.007ms returns 0
T3994 008:484.987 JLINK_WriteReg(R12, 0x00000000)
T3994 008:484.992 - 0.007ms returns 0
T3994 008:484.998 JLINK_WriteReg(R13 (SP), 0x20001000)
T3994 008:485.004 - 0.010ms returns 0
T3994 008:485.013 JLINK_WriteReg(R14, 0x20000001)
T3994 008:485.018 - 0.007ms returns 0
T3994 008:485.024 JLINK_WriteReg(R15 (PC), 0x20000020)
T3994 008:485.034 - 0.013ms returns 0
T3994 008:485.041 JLINK_WriteReg(XPSR, 0x01000000)
T3994 008:485.046 - 0.007ms returns 0
T3994 008:485.052 JLINK_WriteReg(MSP, 0x20001000)
T3994 008:485.057 - 0.007ms returns 0
T3994 008:485.063 JLINK_WriteReg(PSP, 0x20001000)
T3994 008:485.068 - 0.007ms returns 0
T3994 008:485.074 JLINK_WriteReg(CFBP, 0x00000000)
T3994 008:485.079 - 0.007ms returns 0
T3994 008:485.085 JLINK_SetBPEx(Addr = 0x20000000, Type = 0xFFFFFFF2)
T3994 008:485.092 - 0.008ms returns 0x00000007
T3994 008:485.098 JLINK_Go()
T3994 008:485.110   CPU_ReadMem(4 bytes @ 0xE0001000)
T3994 008:487.893 - 2.798ms
T3994 008:487.901 JLINK_IsHalted()
T3994 008:488.203 - 0.305ms returns FALSE
T3994 008:488.210 JLINK_HasError()
T3994 008:491.844 JLINK_IsHalted()
T3994 008:492.219 - 0.378ms returns FALSE
T3994 008:492.228 JLINK_HasError()
T3994 008:493.852 JLINK_IsHalted()
T3994 008:496.220   CPU_ReadMem(2 bytes @ 0x20000000)
T3994 008:496.554 - 2.708ms returns TRUE
T3994 008:496.565 JLINK_ReadReg(R15 (PC))
T3994 008:496.571 - 0.007ms returns 0x20000000
T3994 008:496.575 JLINK_ClrBPEx(BPHandle = 0x00000007)
T3994 008:496.578 - 0.005ms returns 0x00
T3994 008:496.582 JLINK_ReadReg(R0)
T3994 008:496.585 - 0.004ms returns 0x00000000
T3994 008:496.904 JLINK_HasError()
T3994 008:496.911 JLINK_WriteReg(R0, 0x08003000)
T3994 008:496.916 - 0.006ms returns 0
T3994 008:496.920 JLINK_WriteReg(R1, 0x00000800)
T3994 008:496.923 - 0.004ms returns 0
T3994 008:496.926 JLINK_WriteReg(R2, 0x000000FF)
T3994 008:496.929 - 0.004ms returns 0
T3994 008:496.933 JLINK_WriteReg(R3, 0x00000000)
T3994 008:496.936 - 0.004ms returns 0
T3994 008:496.939 JLINK_WriteReg(R4, 0x00000000)
T3994 008:496.942 - 0.004ms returns 0
T3994 008:496.945 JLINK_WriteReg(R5, 0x00000000)
T3994 008:496.948 - 0.004ms returns 0
T3994 008:496.952 JLINK_WriteReg(R6, 0x00000000)
T3994 008:496.955 - 0.004ms returns 0
T3994 008:496.958 JLINK_WriteReg(R7, 0x00000000)
T3994 008:496.961 - 0.004ms returns 0
T3994 008:496.964 JLINK_WriteReg(R8, 0x00000000)
T3994 008:496.967 - 0.004ms returns 0
T3994 008:496.971 JLINK_WriteReg(R9, 0x20000134)
T3994 008:496.974 - 0.004ms returns 0
T3994 008:496.977 JLINK_WriteReg(R10, 0x00000000)
T3994 008:496.980 - 0.004ms returns 0
T3994 008:496.984 JLINK_WriteReg(R11, 0x00000000)
T3994 008:496.987 - 0.004ms returns 0
T3994 008:496.990 JLINK_WriteReg(R12, 0x00000000)
T3994 008:496.993 - 0.004ms returns 0
T3994 008:496.996 JLINK_WriteReg(R13 (SP), 0x20001000)
T3994 008:497.000 - 0.005ms returns 0
T3994 008:497.003 JLINK_WriteReg(R14, 0x20000001)
T3994 008:497.006 - 0.004ms returns 0
T3994 008:497.010 JLINK_WriteReg(R15 (PC), 0x20000020)
T3994 008:497.013 - 0.004ms returns 0
T3994 008:497.016 JLINK_WriteReg(XPSR, 0x01000000)
T3994 008:497.019 - 0.004ms returns 0
T3994 008:497.023 JLINK_WriteReg(MSP, 0x20001000)
T3994 008:497.026 - 0.004ms returns 0
T3994 008:497.029 JLINK_WriteReg(PSP, 0x20001000)
T3994 008:497.032 - 0.004ms returns 0
T3994 008:497.035 JLINK_WriteReg(CFBP, 0x00000000)
T3994 008:497.038 - 0.004ms returns 0
T3994 008:497.042 JLINK_SetBPEx(Addr = 0x20000000, Type = 0xFFFFFFF2)
T3994 008:497.046 - 0.005ms returns 0x00000008
T3994 008:497.049 JLINK_Go()
T3994 008:497.057   CPU_ReadMem(4 bytes @ 0xE0001000)
T3994 008:499.803 - 2.759ms
T3994 008:499.813 JLINK_IsHalted()
T3994 008:500.093 - 0.282ms returns FALSE
T3994 008:500.098 JLINK_HasError()
T3994 008:502.010 JLINK_IsHalted()
T3994 008:502.384 - 0.376ms returns FALSE
T3994 008:502.389 JLINK_HasError()
T3994 008:504.002 JLINK_IsHalted()
T3994 008:504.365 - 0.364ms returns FALSE
T3994 008:504.370 JLINK_HasError()
T3994 008:506.029 JLINK_IsHalted()
T3994 008:508.362   CPU_ReadMem(2 bytes @ 0x20000000)
T3994 008:508.660 - 2.634ms returns TRUE
T3994 008:508.667 JLINK_ReadReg(R15 (PC))
T3994 008:508.673 - 0.008ms returns 0x20000000
T3994 008:508.678 JLINK_ClrBPEx(BPHandle = 0x00000008)
T3994 008:508.686 - 0.009ms returns 0x00
T3994 008:508.691 JLINK_ReadReg(R0)
T3994 008:508.695 - 0.006ms returns 0x00000000
T3994 008:509.031 JLINK_HasError()
T3994 008:509.038 JLINK_WriteReg(R0, 0x08003800)
T3994 008:509.045 - 0.009ms returns 0
T3994 008:509.052 JLINK_WriteReg(R1, 0x00000800)
T3994 008:509.058 - 0.008ms returns 0
T3994 008:509.064 JLINK_WriteReg(R2, 0x000000FF)
T3994 008:509.068 - 0.006ms returns 0
T3994 008:509.073 JLINK_WriteReg(R3, 0x00000000)
T3994 008:509.077 - 0.006ms returns 0
T3994 008:509.082 JLINK_WriteReg(R4, 0x00000000)
T3994 008:509.086 - 0.006ms returns 0
T3994 008:509.091 JLINK_WriteReg(R5, 0x00000000)
T3994 008:509.095 - 0.006ms returns 0
T3994 008:509.100 JLINK_WriteReg(R6, 0x00000000)
T3994 008:509.105 - 0.006ms returns 0
T3994 008:509.110 JLINK_WriteReg(R7, 0x00000000)
T3994 008:509.114 - 0.006ms returns 0
T3994 008:509.119 JLINK_WriteReg(R8, 0x00000000)
T3994 008:509.123 - 0.006ms returns 0
T3994 008:509.128 JLINK_WriteReg(R9, 0x20000134)
T3994 008:509.132 - 0.006ms returns 0
T3994 008:509.137 JLINK_WriteReg(R10, 0x00000000)
T3994 008:509.142 - 0.006ms returns 0
T3994 008:509.146 JLINK_WriteReg(R11, 0x00000000)
T3994 008:509.156 - 0.012ms returns 0
T3994 008:509.161 JLINK_WriteReg(R12, 0x00000000)
T3994 008:509.166 - 0.006ms returns 0
T3994 008:509.171 JLINK_WriteReg(R13 (SP), 0x20001000)
T3994 008:509.175 - 0.007ms returns 0
T3994 008:509.180 JLINK_WriteReg(R14, 0x20000001)
T3994 008:509.185 - 0.006ms returns 0
T3994 008:509.190 JLINK_WriteReg(R15 (PC), 0x20000020)
T3994 008:509.194 - 0.006ms returns 0
T3994 008:509.199 JLINK_WriteReg(XPSR, 0x01000000)
T3994 008:509.203 - 0.006ms returns 0
T3994 008:509.208 JLINK_WriteReg(MSP, 0x20001000)
T3994 008:509.213 - 0.006ms returns 0
T3994 008:509.218 JLINK_WriteReg(PSP, 0x20001000)
T3994 008:509.222 - 0.006ms returns 0
T3994 008:509.227 JLINK_WriteReg(CFBP, 0x00000000)
T3994 008:509.231 - 0.006ms returns 0
T3994 008:509.236 JLINK_SetBPEx(Addr = 0x20000000, Type = 0xFFFFFFF2)
T3994 008:509.241 - 0.007ms returns 0x00000009
T3994 008:509.246 JLINK_Go()
T3994 008:509.256   CPU_ReadMem(4 bytes @ 0xE0001000)
T3994 008:511.976 - 2.733ms
T3994 008:511.984 JLINK_IsHalted()
T3994 008:512.266 - 0.285ms returns FALSE
T3994 008:512.273 JLINK_HasError()
T3994 008:513.600 JLINK_IsHalted()
T3994 008:513.912 - 0.318ms returns FALSE
T3994 008:513.924 JLINK_HasError()
T3994 008:515.657 JLINK_IsHalted()
T3994 008:515.975 - 0.321ms returns FALSE
T3994 008:515.982 JLINK_HasError()
T3994 008:517.658 JLINK_IsHalted()
T3994 008:520.031   CPU_ReadMem(2 bytes @ 0x20000000)
T3994 008:520.357 - 2.703ms returns TRUE
T3994 008:520.367 JLINK_ReadReg(R15 (PC))
T3994 008:520.375 - 0.011ms returns 0x20000000
T3994 008:520.382 JLINK_ClrBPEx(BPHandle = 0x00000009)
T3994 008:520.389 - 0.009ms returns 0x00
T3994 008:520.397 JLINK_ReadReg(R0)
T3994 008:520.403 - 0.009ms returns 0x00000000
T3994 008:521.001 JLINK_HasError()
T3994 008:521.015 JLINK_WriteReg(R0, 0x08004000)
T3994 008:521.024 - 0.012ms returns 0
T3994 008:521.032 JLINK_WriteReg(R1, 0x00000800)
T3994 008:521.039 - 0.010ms returns 0
T3994 008:521.047 JLINK_WriteReg(R2, 0x000000FF)
T3994 008:521.053 - 0.009ms returns 0
T3994 008:521.061 JLINK_WriteReg(R3, 0x00000000)
T3994 008:521.068 - 0.009ms returns 0
T3994 008:521.075 JLINK_WriteReg(R4, 0x00000000)
T3994 008:521.082 - 0.009ms returns 0
T3994 008:521.089 JLINK_WriteReg(R5, 0x00000000)
T3994 008:521.096 - 0.009ms returns 0
T3994 008:521.104 JLINK_WriteReg(R6, 0x00000000)
T3994 008:521.110 - 0.009ms returns 0
T3994 008:521.118 JLINK_WriteReg(R7, 0x00000000)
T3994 008:521.124 - 0.009ms returns 0
T3994 008:521.132 JLINK_WriteReg(R8, 0x00000000)
T3994 008:521.138 - 0.009ms returns 0
T3994 008:521.146 JLINK_WriteReg(R9, 0x20000134)
T3994 008:521.153 - 0.009ms returns 0
T3994 008:521.160 JLINK_WriteReg(R10, 0x00000000)
T3994 008:521.167 - 0.009ms returns 0
T3994 008:521.178 JLINK_WriteReg(R11, 0x00000000)
T3994 008:521.187 - 0.012ms returns 0
T3994 008:521.195 JLINK_WriteReg(R12, 0x00000000)
T3994 008:521.206 - 0.014ms returns 0
T3994 008:521.214 JLINK_WriteReg(R13 (SP), 0x20001000)
T3994 008:521.221 - 0.010ms returns 0
T3994 008:521.228 JLINK_WriteReg(R14, 0x20000001)
T3994 008:521.235 - 0.009ms returns 0
T3994 008:521.243 JLINK_WriteReg(R15 (PC), 0x20000020)
T3994 008:521.249 - 0.010ms returns 0
T3994 008:521.257 JLINK_WriteReg(XPSR, 0x01000000)
T3994 008:521.264 - 0.009ms returns 0
T3994 008:521.271 JLINK_WriteReg(MSP, 0x20001000)
T3994 008:521.278 - 0.010ms returns 0
T3994 008:521.285 JLINK_WriteReg(PSP, 0x20001000)
T3994 008:521.292 - 0.009ms returns 0
T3994 008:521.300 JLINK_WriteReg(CFBP, 0x00000000)
T3994 008:521.306 - 0.009ms returns 0
T3994 008:521.314 JLINK_SetBPEx(Addr = 0x20000000, Type = 0xFFFFFFF2)
T3994 008:521.322 - 0.011ms returns 0x0000000A
T3994 008:521.330 JLINK_Go()
T3994 008:521.344   CPU_ReadMem(4 bytes @ 0xE0001000)
T3994 008:524.250 - 2.926ms
T3994 008:524.262 JLINK_IsHalted()
T3994 008:524.582 - 0.324ms returns FALSE
T3994 008:524.591 JLINK_HasError()
T3994 008:527.951 JLINK_IsHalted()
T3994 008:528.309 - 0.361ms returns FALSE
T3994 008:528.318 JLINK_HasError()
T3994 008:529.424 JLINK_IsHalted()
T3994 008:531.917   CPU_ReadMem(2 bytes @ 0x20000000)
T3994 008:532.271 - 2.850ms returns TRUE
T3994 008:532.281 JLINK_ReadReg(R15 (PC))
T3994 008:532.289 - 0.011ms returns 0x20000000
T3994 008:532.297 JLINK_ClrBPEx(BPHandle = 0x0000000A)
T3994 008:532.303 - 0.009ms returns 0x00
T3994 008:532.310 JLINK_ReadReg(R0)
T3994 008:532.316 - 0.009ms returns 0x00000000
T3994 008:532.787 JLINK_HasError()
T3994 008:532.798 JLINK_WriteReg(R0, 0x08004800)
T3994 008:532.807 - 0.011ms returns 0
T3994 008:532.814 JLINK_WriteReg(R1, 0x00000800)
T3994 008:532.821 - 0.009ms returns 0
T3994 008:532.828 JLINK_WriteReg(R2, 0x000000FF)
T3994 008:532.834 - 0.009ms returns 0
T3994 008:532.841 JLINK_WriteReg(R3, 0x00000000)
T3994 008:532.847 - 0.009ms returns 0
T3994 008:532.854 JLINK_WriteReg(R4, 0x00000000)
T3994 008:532.860 - 0.009ms returns 0
T3994 008:532.867 JLINK_WriteReg(R5, 0x00000000)
T3994 008:532.873 - 0.008ms returns 0
T3994 008:532.880 JLINK_WriteReg(R6, 0x00000000)
T3994 008:532.886 - 0.009ms returns 0
T3994 008:532.893 JLINK_WriteReg(R7, 0x00000000)
T3994 008:532.899 - 0.009ms returns 0
T3994 008:532.906 JLINK_WriteReg(R8, 0x00000000)
T3994 008:532.912 - 0.009ms returns 0
T3994 008:532.919 JLINK_WriteReg(R9, 0x20000134)
T3994 008:532.925 - 0.009ms returns 0
T3994 008:532.932 JLINK_WriteReg(R10, 0x00000000)
T3994 008:532.938 - 0.009ms returns 0
T3994 008:532.945 JLINK_WriteReg(R11, 0x00000000)
T3994 008:532.951 - 0.009ms returns 0
T3994 008:532.958 JLINK_WriteReg(R12, 0x00000000)
T3994 008:532.964 - 0.008ms returns 0
T3994 008:532.971 JLINK_WriteReg(R13 (SP), 0x20001000)
T3994 008:532.978 - 0.009ms returns 0
T3994 008:532.985 JLINK_WriteReg(R14, 0x20000001)
T3994 008:532.991 - 0.009ms returns 0
T3994 008:532.998 JLINK_WriteReg(R15 (PC), 0x20000020)
T3994 008:533.004 - 0.009ms returns 0
T3994 008:533.011 JLINK_WriteReg(XPSR, 0x01000000)
T3994 008:533.017 - 0.009ms returns 0
T3994 008:533.024 JLINK_WriteReg(MSP, 0x20001000)
T3994 008:533.031 - 0.009ms returns 0
T3994 008:533.037 JLINK_WriteReg(PSP, 0x20001000)
T3994 008:533.044 - 0.009ms returns 0
T3994 008:533.050 JLINK_WriteReg(CFBP, 0x00000000)
T3994 008:533.057 - 0.009ms returns 0
T3994 008:533.064 JLINK_SetBPEx(Addr = 0x20000000, Type = 0xFFFFFFF2)
T3994 008:533.072 - 0.011ms returns 0x0000000B
T3994 008:533.079 JLINK_Go()
T3994 008:533.092   CPU_ReadMem(4 bytes @ 0xE0001000)
T3994 008:535.959 - 2.883ms
T3994 008:535.968 JLINK_IsHalted()
T3994 008:536.271 - 0.306ms returns FALSE
T3994 008:536.280 JLINK_HasError()
T3994 008:542.727 JLINK_IsHalted()
T3994 008:545.191   CPU_ReadMem(2 bytes @ 0x20000000)
T3994 008:545.495 - 2.771ms returns TRUE
T3994 008:545.502 JLINK_ReadReg(R15 (PC))
T3994 008:545.508 - 0.008ms returns 0x20000000
T3994 008:545.514 JLINK_ClrBPEx(BPHandle = 0x0000000B)
T3994 008:545.518 - 0.007ms returns 0x00
T3994 008:545.525 JLINK_ReadReg(R0)
T3994 008:545.531 - 0.007ms returns 0x00000000
T3994 008:545.926 JLINK_HasError()
T3994 008:545.943 JLINK_WriteReg(R0, 0x00000001)
T3994 008:545.951 - 0.010ms returns 0
T3994 008:545.956 JLINK_WriteReg(R1, 0x00000800)
T3994 008:545.961 - 0.007ms returns 0
T3994 008:545.966 JLINK_WriteReg(R2, 0x000000FF)
T3994 008:545.971 - 0.006ms returns 0
T3994 008:545.976 JLINK_WriteReg(R3, 0x00000000)
T3994 008:545.980 - 0.006ms returns 0
T3994 008:545.985 JLINK_WriteReg(R4, 0x00000000)
T3994 008:545.990 - 0.006ms returns 0
T3994 008:545.995 JLINK_WriteReg(R5, 0x00000000)
T3994 008:545.999 - 0.006ms returns 0
T3994 008:546.004 JLINK_WriteReg(R6, 0x00000000)
T3994 008:546.008 - 0.006ms returns 0
T3994 008:546.013 JLINK_WriteReg(R7, 0x00000000)
T3994 008:546.018 - 0.006ms returns 0
T3994 008:546.023 JLINK_WriteReg(R8, 0x00000000)
T3994 008:546.027 - 0.006ms returns 0
T3994 008:546.032 JLINK_WriteReg(R9, 0x20000134)
T3994 008:546.036 - 0.006ms returns 0
T3994 008:546.041 JLINK_WriteReg(R10, 0x00000000)
T3994 008:546.046 - 0.006ms returns 0
T3994 008:546.051 JLINK_WriteReg(R11, 0x00000000)
T3994 008:546.060 - 0.011ms returns 0
T3994 008:546.065 JLINK_WriteReg(R12, 0x00000000)
T3994 008:546.069 - 0.006ms returns 0
T3994 008:546.074 JLINK_WriteReg(R13 (SP), 0x20001000)
T3994 008:546.079 - 0.007ms returns 0
T3994 008:546.084 JLINK_WriteReg(R14, 0x20000001)
T3994 008:546.088 - 0.006ms returns 0
T3994 008:546.093 JLINK_WriteReg(R15 (PC), 0x2000006C)
T3994 008:546.098 - 0.006ms returns 0
T3994 008:546.103 JLINK_WriteReg(XPSR, 0x01000000)
T3994 008:546.107 - 0.006ms returns 0
T3994 008:546.112 JLINK_WriteReg(MSP, 0x20001000)
T3994 008:546.117 - 0.006ms returns 0
T3994 008:546.122 JLINK_WriteReg(PSP, 0x20001000)
T3994 008:546.126 - 0.006ms returns 0
T3994 008:546.131 JLINK_WriteReg(CFBP, 0x00000000)
T3994 008:546.135 - 0.006ms returns 0
T3994 008:546.141 JLINK_SetBPEx(Addr = 0x20000000, Type = 0xFFFFFFF2)
T3994 008:546.146 - 0.007ms returns 0x0000000C
T3994 008:546.151 JLINK_Go()
T3994 008:546.162   CPU_ReadMem(4 bytes @ 0xE0001000)
T3994 008:548.954 - 2.811ms
T3994 008:548.967 JLINK_IsHalted()
T3994 008:551.320   CPU_ReadMem(2 bytes @ 0x20000000)
T3994 008:551.623 - 2.658ms returns TRUE
T3994 008:551.631 JLINK_ReadReg(R15 (PC))
T3994 008:551.637 - 0.009ms returns 0x20000000
T3994 008:551.643 JLINK_ClrBPEx(BPHandle = 0x0000000C)
T3994 008:551.649 - 0.008ms returns 0x00
T3994 008:551.656 JLINK_ReadReg(R0)
T3994 008:551.661 - 0.007ms returns 0x00000000
T3994 008:610.108 JLINK_WriteMem(0x20000000, 0x13C Bytes, ...)
T3994 008:610.121   Data:  00 BE 0A E0 0D 78 2D 06 68 40 08 24 40 00 00 D3 ...
T3994 008:610.140   CPU_WriteMem(316 bytes @ 0x20000000)
T3994 008:611.522 - 1.417ms returns 0x13C
T3994 008:611.542 JLINK_HasError()
T3994 008:611.548 JLINK_WriteReg(R0, 0x08000000)
T3994 008:611.554 - 0.008ms returns 0
T3994 008:611.560 JLINK_WriteReg(R1, 0x00B71B00)
T3994 008:611.565 - 0.007ms returns 0
T3994 008:611.570 JLINK_WriteReg(R2, 0x00000002)
T3994 008:611.575 - 0.007ms returns 0
T3994 008:611.580 JLINK_WriteReg(R3, 0x00000000)
T3994 008:611.585 - 0.006ms returns 0
T3994 008:611.590 JLINK_WriteReg(R4, 0x00000000)
T3994 008:611.595 - 0.007ms returns 0
T3994 008:611.600 JLINK_WriteReg(R5, 0x00000000)
T3994 008:611.605 - 0.007ms returns 0
T3994 008:611.610 JLINK_WriteReg(R6, 0x00000000)
T3994 008:611.615 - 0.006ms returns 0
T3994 008:611.620 JLINK_WriteReg(R7, 0x00000000)
T3994 008:611.625 - 0.006ms returns 0
T3994 008:611.630 JLINK_WriteReg(R8, 0x00000000)
T3994 008:611.635 - 0.007ms returns 0
T3994 008:611.640 JLINK_WriteReg(R9, 0x20000134)
T3994 008:611.645 - 0.007ms returns 0
T3994 008:611.650 JLINK_WriteReg(R10, 0x00000000)
T3994 008:611.656 - 0.009ms returns 0
T3994 008:611.662 JLINK_WriteReg(R11, 0x00000000)
T3994 008:611.667 - 0.007ms returns 0
T3994 008:611.673 JLINK_WriteReg(R12, 0x00000000)
T3994 008:611.677 - 0.007ms returns 0
T3994 008:611.683 JLINK_WriteReg(R13 (SP), 0x20001000)
T3994 008:611.688 - 0.007ms returns 0
T3994 008:611.695 JLINK_WriteReg(R14, 0x20000001)
T3994 008:611.701 - 0.008ms returns 0
T3994 008:611.706 JLINK_WriteReg(R15 (PC), 0x20000038)
T3994 008:611.711 - 0.007ms returns 0
T3994 008:611.716 JLINK_WriteReg(XPSR, 0x01000000)
T3994 008:611.721 - 0.007ms returns 0
T3994 008:611.727 JLINK_WriteReg(MSP, 0x20001000)
T3994 008:611.731 - 0.007ms returns 0
T3994 008:611.737 JLINK_WriteReg(PSP, 0x20001000)
T3994 008:611.741 - 0.007ms returns 0
T3994 008:611.747 JLINK_WriteReg(CFBP, 0x00000000)
T3994 008:611.751 - 0.006ms returns 0
T3994 008:611.757 JLINK_SetBPEx(Addr = 0x20000000, Type = 0xFFFFFFF2)
T3994 008:611.764   CPU_ReadMem(2 bytes @ 0x20000000)
T3994 008:612.061 - 0.307ms returns 0x0000000D
T3994 008:612.068 JLINK_Go()
T3994 008:612.074   CPU_WriteMem(2 bytes @ 0x20000000)
T3994 008:612.520   CPU_ReadMem(4 bytes @ 0xE0001000)
T3994 008:615.411 - 3.350ms
T3994 008:615.423 JLINK_IsHalted()
T3994 008:617.739   CPU_ReadMem(2 bytes @ 0x20000000)
T3994 008:618.039 - 2.619ms returns TRUE
T3994 008:618.052 JLINK_ReadReg(R15 (PC))
T3994 008:618.061 - 0.012ms returns 0x20000000
T3994 008:618.098 JLINK_ClrBPEx(BPHandle = 0x0000000D)
T3994 008:618.105 - 0.010ms returns 0x00
T3994 008:618.112 JLINK_ReadReg(R0)
T3994 008:618.118 - 0.008ms returns 0x00000000
T3994 008:618.391 JLINK_WriteMem(0x2000013C, 0x2C4 Bytes, ...)
T3994 008:618.399   Data:  68 1C 00 20 FD 01 00 08 35 22 00 08 6D 20 00 08 ...
T3994 008:618.414   CPU_WriteMem(708 bytes @ 0x2000013C)
T3994 008:621.051 - 2.670ms returns 0x2C4
T3994 008:621.068 JLINK_WriteMem(0x20000400, 0x13C Bytes, ...)
T3994 008:621.075   Data:  10 D0 AF F3 00 80 00 28 02 DA 40 42 13 A5 07 E0 ...
T3994 008:621.088   CPU_WriteMem(316 bytes @ 0x20000400)
T3994 008:622.418 - 1.353ms returns 0x13C
T3994 008:622.428 JLINK_HasError()
T3994 008:622.437 JLINK_WriteReg(R0, 0x08000000)
T3994 008:622.445 - 0.011ms returns 0
T3994 008:622.453 JLINK_WriteReg(R1, 0x00000400)
T3994 008:622.460 - 0.010ms returns 0
T3994 008:622.467 JLINK_WriteReg(R2, 0x2000013C)
T3994 008:622.474 - 0.010ms returns 0
T3994 008:622.482 JLINK_WriteReg(R3, 0x00000000)
T3994 008:622.488 - 0.009ms returns 0
T3994 008:622.496 JLINK_WriteReg(R4, 0x00000000)
T3994 008:622.503 - 0.010ms returns 0
T3994 008:622.510 JLINK_WriteReg(R5, 0x00000000)
T3994 008:622.517 - 0.009ms returns 0
T3994 008:622.524 JLINK_WriteReg(R6, 0x00000000)
T3994 008:622.531 - 0.009ms returns 0
T3994 008:622.538 JLINK_WriteReg(R7, 0x00000000)
T3994 008:622.545 - 0.009ms returns 0
T3994 008:622.553 JLINK_WriteReg(R8, 0x00000000)
T3994 008:622.559 - 0.009ms returns 0
T3994 008:622.567 JLINK_WriteReg(R9, 0x20000134)
T3994 008:622.573 - 0.009ms returns 0
T3994 008:622.581 JLINK_WriteReg(R10, 0x00000000)
T3994 008:622.588 - 0.009ms returns 0
T3994 008:622.595 JLINK_WriteReg(R11, 0x00000000)
T3994 008:622.602 - 0.009ms returns 0
T3994 008:622.609 JLINK_WriteReg(R12, 0x00000000)
T3994 008:622.616 - 0.009ms returns 0
T3994 008:622.623 JLINK_WriteReg(R13 (SP), 0x20001000)
T3994 008:622.637 - 0.017ms returns 0
T3994 008:622.645 JLINK_WriteReg(R14, 0x20000001)
T3994 008:622.652 - 0.009ms returns 0
T3994 008:622.659 JLINK_WriteReg(R15 (PC), 0x200000D8)
T3994 008:622.666 - 0.010ms returns 0
T3994 008:622.674 JLINK_WriteReg(XPSR, 0x01000000)
T3994 008:622.680 - 0.010ms returns 0
T3994 008:622.688 JLINK_WriteReg(MSP, 0x20001000)
T3994 008:622.695 - 0.009ms returns 0
T3994 008:622.702 JLINK_WriteReg(PSP, 0x20001000)
T3994 008:622.709 - 0.009ms returns 0
T3994 008:622.716 JLINK_WriteReg(CFBP, 0x00000000)
T3994 008:622.723 - 0.010ms returns 0
T3994 008:622.731 JLINK_SetBPEx(Addr = 0x20000000, Type = 0xFFFFFFF2)
T3994 008:622.739 - 0.011ms returns 0x0000000E
T3994 008:622.746 JLINK_Go()
T3994 008:622.759   CPU_ReadMem(4 bytes @ 0xE0001000)
T3994 008:625.569 - 2.827ms
T3994 008:625.581 JLINK_IsHalted()
T3994 008:625.878 - 0.302ms returns FALSE
T3994 008:625.890 JLINK_HasError()
T3994 008:628.226 JLINK_IsHalted()
T3994 008:628.605 - 0.383ms returns FALSE
T3994 008:628.616 JLINK_HasError()
T3994 008:629.956 JLINK_IsHalted()
T3994 008:630.510 - 0.568ms returns FALSE
T3994 008:630.534 JLINK_HasError()
T3994 008:634.460 JLINK_IsHalted()
T3994 008:634.783 - 0.325ms returns FALSE
T3994 008:634.790 JLINK_HasError()
T3994 008:636.816 JLINK_IsHalted()
T3994 008:637.123 - 0.311ms returns FALSE
T3994 008:637.131 JLINK_HasError()
T3994 008:638.829 JLINK_IsHalted()
T3994 008:639.140 - 0.314ms returns FALSE
T3994 008:639.147 JLINK_HasError()
T3994 008:640.896 JLINK_IsHalted()
T3994 008:641.178 - 0.288ms returns FALSE
T3994 008:641.188 JLINK_HasError()
T3994 008:642.958 JLINK_IsHalted()
T3994 008:643.239 - 0.282ms returns FALSE
T3994 008:643.244 JLINK_HasError()
T3994 008:645.028 JLINK_IsHalted()
T3994 008:645.432 - 0.410ms returns FALSE
T3994 008:645.443 JLINK_HasError()
T3994 008:647.011 JLINK_IsHalted()
T3994 008:647.364 - 0.355ms returns FALSE
T3994 008:647.369 JLINK_HasError()
T3994 008:649.017 JLINK_IsHalted()
T3994 008:649.300 - 0.285ms returns FALSE
T3994 008:649.305 JLINK_HasError()
T3994 008:651.089 JLINK_IsHalted()
T3994 008:651.384 - 0.297ms returns FALSE
T3994 008:651.389 JLINK_HasError()
T3994 008:653.131 JLINK_IsHalted()
T3994 008:655.566   CPU_ReadMem(2 bytes @ 0x20000000)
T3994 008:655.867 - 2.738ms returns TRUE
T3994 008:655.872 JLINK_ReadReg(R15 (PC))
T3994 008:655.877 - 0.007ms returns 0x20000000
T3994 008:655.882 JLINK_ClrBPEx(BPHandle = 0x0000000E)
T3994 008:655.886 - 0.005ms returns 0x00
T3994 008:655.890 JLINK_ReadReg(R0)
T3994 008:655.894 - 0.005ms returns 0x00000000
T3994 008:656.222 JLINK_WriteMem(0x2000013C, 0x2C4 Bytes, ...)
T3994 008:656.229   Data:  04 06 C4 F8 1C A0 00 27 C4 F8 18 A0 2A 2D 09 D0 ...
T3994 008:656.240   CPU_WriteMem(708 bytes @ 0x2000013C)
T3994 008:658.886 - 2.676ms returns 0x2C4
T3994 008:658.920 JLINK_WriteMem(0x20000400, 0x13C Bytes, ...)
T3994 008:658.925   Data:  0C C0 5D F8 04 EB 89 00 28 BF 40 F8 04 2B 08 BF ...
